
**** 11/10/15 21:01:41 ****** PSpice Lite (October 2012) ****** ID# 10813 ****

 PreAmplifier Circuit


 ****     CIRCUIT DESCRIPTION


******************************************************************************




*Voltage Sources
*Vin 0 1 SIN (0 0.001 .48Meg 0 0 0)
Vin 0 1 AC 1m 0
*Vin1 30 0  SIN (0 10m 20K)
*Vin2 31 0  SIN (0 10m .48Meg)


*E1_mult 0 1 value {V(30)*V(31)}
VCC 3 0 5V

*Elements*
*Capacitors 
C2 1 2 1u
C3 3 0 1u
CB 4 0 1u

*Resisors
R5 2 0 22k
R4 2 3 28k
R6 3 4 25k
R7 4 0 70k
RE 6 0 40
R9 10 0 10

*Transisors
QT1 5 2 6 MPS3704
QT2 8 4 5 MPS3704
QT3 3 8 9 MPS3704
QT4 3 9 10 MPS3704

.model MPS3704  NPN(Is=26.03f Xti=3 Eg=1.11 Vaf=90.7 Bf=736.1K Ne=1.232
+               Ise=26.03f Ikf=.1983 Xtb=1.5 Br=1.024 Nc=2 Isc=0 Ikr=0 Rc=.5
+               Cjc=11.01p Mjc=.3763 Vjc=.75 Fc=.5 Cje=24.07p Mje=.3641 Vje=.75
+               Tr=233.8n Tf=1.03n Itf=0 Vtf=0 Xtf=0 Rb=10)
*               Motorola        pid=2N4400      case=TO92
*               88-09-13 bam    creation

*TANK
RL 3 7 10
LT 7 8 100uH
CT 3 8 1nF

*Analysis Request
.probe
*.TRAN 0.1m 0.5m
.AC DEC 3 0.1Hz 1000MEGHz
.END

**** 11/10/15 21:01:41 ****** PSpice Lite (October 2012) ****** ID# 10813 ****

 PreAmplifier Circuit


 ****     BJT MODEL PARAMETERS


******************************************************************************




               MPS3704         
               NPN             
       LEVEL    1            
          IS   26.030000E-15 
          BF  736.100000E+03 
          NF    1            
         VAF   90.7          
         IKF     .1983       
         ISE   26.030000E-15 
          NE    1.232        
          BR    1.024        
          NR    1            
         ISS    0            
          RB   10            
          RE    0            
          RC     .5          
         CJE   24.070000E-12 
         VJE     .75         
         MJE     .3641       
         CJC   11.010000E-12 
         VJC     .75         
         MJC     .3763       
        XCJC    1            
         CJS    0            
         VJS     .75         
          TF    1.030000E-09 
          TR  233.800000E-09 
         XTB    1.5          
          KF    0            
          AF    1            
          CN    2.42         
           D     .87         


**** 11/10/15 21:01:41 ****** PSpice Lite (October 2012) ****** ID# 10813 ****

 PreAmplifier Circuit


 ****     SMALL SIGNAL BIAS SOLUTION       TEMPERATURE =   27.000 DEG C


******************************************************************************



 NODE   VOLTAGE     NODE   VOLTAGE     NODE   VOLTAGE     NODE   VOLTAGE


(    1)    0.0000  (    2)    1.1937  (    3)    5.0000  (    4)    2.2200      

(    5)    1.5233  (    6)     .4961  (    7)    4.8774  (    8)    4.8774      

(    9)    4.2227  (   10)    3.3911  




    VOLTAGE SOURCE CURRENTS
    NAME         CURRENT

    Vin          0.000E+00
    VCC         -3.516E-01

    TOTAL POWER DISSIPATION   1.76E+00  WATTS



          JOB CONCLUDED

**** 11/10/15 21:01:41 ****** PSpice Lite (October 2012) ****** ID# 10813 ****

 PreAmplifier Circuit


 ****     JOB STATISTICS SUMMARY


******************************************************************************



  Total job time (using Solver 1)   =         .03
